T4E28 000:002.318   SEGGER J-Link V8.74 Log File
T4E28 000:002.790   DLL Compiled: Sep 30 2025 12:11:23
T4E28 000:002.810   Logging started @ 2025-11-26 08:02
T4E28 000:002.827   Process: C:\Users\jerry.chen\.eclipse\com.renesas.platform_1435879475\DebugComp\RA\e2-server-gdb.exe
T4E28 000:002.851 - 2.844ms 
T4E28 000:002.883 JLINK_GetDLLVersion()
T4E28 000:002.902 - 0.020ms returns 87400
T4E28 000:015.307 JLINK_OpenEx(...)
T4E28 000:032.294   Firmware: J-Link OB-RA4M2 compiled Jul  8 2025 10:15:56
T4E28 000:032.908   Firmware: J-Link OB-RA4M2 compiled Jul  8 2025 10:15:56
T4E28 000:048.017   Hardware: V1.00
T4E28 000:048.094   S/N: 1081209650
T4E28 000:048.118   OEM: SEGGER
T4E28 000:048.143   Feature(s): None
T4E28 000:049.177   Bootloader: 2021 May 14
T4E28 000:049.571   USB speed mode: Full speed (12 MBit/s)
T4E28 000:050.103   TELNET listener socket opened on port 19021
T4E28 000:050.383   WEBSRV WEBSRV_Init(): Starting webserver thread(s)
T4E28 000:050.799   WEBSRV Webserver running on local port 19080
T4E28 000:051.033   Looking for J-Link GUI Server exe at: C:\Users\jerry.chen\.eclipse\com.renesas.platform_1435879475\DebugComp\RA\ARM\Segger_v8.74.0\JLinkGUIServer.exe
T4E28 000:051.227   Looking for J-Link GUI Server exe at: C:\Program Files\SEGGER\JLink_V858\JLinkGUIServer.exe
T4E28 000:051.285   Forking J-Link GUI Server: C:\Program Files\SEGGER\JLink_V858\JLinkGUIServer.exe
T4E28 000:126.150   J-Link GUI Server info: "J-Link GUI server V8.58 "
T4E28 000:130.952 - 115.630ms returns "O.K."
T4E28 000:131.469 JLINK_TIF_Select(JLINKARM_TIF_SWD)
T4E28 000:132.146 - 0.684ms returns 0x00
T4E28 000:132.201 JLINK_ClrRESET()
T4E28 000:132.464 - 0.261ms 
T4E28 000:183.467 JLINK_SetSpeed(1500)
T4E28 000:183.721 - 0.266ms 
T4E28 000:183.869 JLINK_CORESIGHT_Configure(PerformTIFInit=0)
T4E28 000:184.306 - 0.447ms returns 0
T4E28 000:184.365 JLINK_CORESIGHT_ReadAPDPReg(DP reg 0x00)
T4E28 000:184.764   Value=0x6BA02477
T4E28 000:184.821 - 0.459ms returns 0
T4E28 000:184.846 JLINK_CORESIGHT_WriteAPDPReg(DP reg 0x00, 0x0000001F)
T4E28 000:185.053 - 0.207ms returns 0
T4E28 000:185.076 JLINK_CORESIGHT_ReadAPDPReg(DP reg 0x00)
T4E28 000:185.276   Value=0x6BA02477
T4E28 000:185.365 - 0.288ms returns 0
T4E28 000:185.403 JLINK_CORESIGHT_WriteAPDPReg(DP reg 0x02, 0x00000000)
T4E28 000:185.681 - 0.278ms returns 0
T4E28 000:185.713 JLINK_CORESIGHT_WriteAPDPReg(DP reg 0x01, 0x50000000)
T4E28 000:185.946 - 0.233ms returns 0
T4E28 000:185.976 JLINK_CORESIGHT_ReadAPDPReg(DP reg 0x01)
T4E28 000:186.176   Value=0xF0000040
T4E28 000:186.206 - 0.230ms returns 0
T4E28 000:186.227 JLINK_CORESIGHT_WriteAPDPReg(DP reg 0x00, 0x0000001F)
T4E28 000:186.421 - 0.194ms returns 0
T4E28 000:186.445 JLINK_CORESIGHT_ReadAPDPReg(DP reg 0x00)
T4E28 000:186.649   Value=0x6BA02477
T4E28 000:186.678 - 0.232ms returns 0
T4E28 000:186.698 JLINK_CORESIGHT_WriteAPDPReg(DP reg 0x01, 0x54000000)
T4E28 000:186.874 - 0.176ms returns 0
T4E28 000:186.897 JLINK_CORESIGHT_WriteAPDPReg(DP reg 0x01, 0x50000F00)
T4E28 000:187.147 - 0.250ms returns 0
T4E28 000:187.171 JLINK_CORESIGHT_WriteAPDPReg(DP reg 0x02, 0x01000000)
T4E28 000:187.346 - 0.175ms returns 0
T4E28 000:187.369 JLINK_CORESIGHT_WriteAPDPReg(AP reg 0x00, 0x80000002)
T4E28 000:187.544 - 0.175ms returns 0
T4E28 000:187.568 JLINK_CORESIGHT_WriteAPDPReg(AP reg 0x01, 0x80011100)
T4E28 000:187.744 - 0.177ms returns 0
T4E28 000:187.767 JLINK_CORESIGHT_WriteAPDPReg(AP reg 0x03, 0x000000A5)
T4E28 000:188.001 - 0.234ms returns 0
T4E28 000:188.024 JLINK_CORESIGHT_WriteAPDPReg(AP reg 0x00, 0x80000002)
T4E28 000:188.254 - 0.230ms returns 0
T4E28 000:188.279 JLINK_CORESIGHT_WriteAPDPReg(AP reg 0x01, 0x80011100)
T4E28 000:188.507 - 0.227ms returns 0
T4E28 000:188.530 JLINK_CORESIGHT_ReadAPDPReg(AP reg 0x03)
T4E28 000:188.824   Value=0x000000A5
T4E28 000:188.854 - 0.324ms returns 0
T4E28 000:188.874 JLINK_ClrTMS()
T4E28 000:188.942 - 0.067ms 
T4E28 000:194.159 JLINK_SetTCK()
T4E28 000:194.288 - 0.128ms returns 0
T4E28 000:200.168 JLINK_SetRESET()
T4E28 000:200.312 - 0.144ms 
T4E28 000:401.106 JLINK_CORESIGHT_WriteAPDPReg(AP reg 0x00, 0x80000002)
T4E28 000:401.628 - 0.522ms returns 0
T4E28 000:401.715 JLINK_CORESIGHT_WriteAPDPReg(AP reg 0x01, 0x80011100)
T4E28 000:401.990 - 0.275ms returns 0
T4E28 000:402.036 JLINK_CORESIGHT_ReadAPDPReg(AP reg 0x03)
T4E28 000:402.340   Value=0x00000000
T4E28 000:402.423 - 0.387ms returns 0
T4E28 000:402.454 JLINK_CORESIGHT_WriteAPDPReg(AP reg 0x00, 0x80000002)
T4E28 000:402.667 - 0.213ms returns 0
T4E28 000:402.689 JLINK_CORESIGHT_WriteAPDPReg(AP reg 0x01, 0x80011140)
T4E28 000:402.864 - 0.174ms returns 0
T4E28 000:402.888 JLINK_CORESIGHT_ReadAPDPReg(AP reg 0x03)
T4E28 000:403.149   Value=0x00000002
T4E28 000:403.182 - 0.294ms returns 0
T4E28 000:403.202 JLINK_CORESIGHT_WriteAPDPReg(AP reg 0x00, 0x80000002)
T4E28 000:403.392 - 0.189ms returns 0
T4E28 000:403.415 JLINK_CORESIGHT_WriteAPDPReg(AP reg 0x01, 0x80011120)
T4E28 000:403.592 - 0.176ms returns 0
T4E28 000:403.613 JLINK_CORESIGHT_WriteAPDPReg(AP reg 0x03, 0x00000055)
T4E28 000:403.792 - 0.178ms returns 0
T4E28 000:403.814 JLINK_CORESIGHT_WriteAPDPReg(AP reg 0x00, 0x80000002)
T4E28 000:403.986 - 0.172ms returns 0
T4E28 000:404.008 JLINK_CORESIGHT_WriteAPDPReg(AP reg 0x01, 0x80011140)
T4E28 000:404.197 - 0.189ms returns 0
T4E28 000:404.227 JLINK_CORESIGHT_ReadAPDPReg(AP reg 0x03)
T4E28 000:404.468   Value=0x00000002
T4E28 000:404.504 - 0.276ms returns 0
T4E28 000:404.524 JLINK_CORESIGHT_ReadAPDPReg(AP reg 0x03)
T4E28 000:404.741   Value=0x00000002
T4E28 000:404.770 - 0.246ms returns 0
T4E28 000:404.789 JLINK_CORESIGHT_ReadAPDPReg(AP reg 0x03)
T4E28 000:405.050   Value=0x00000002
T4E28 000:405.079 - 0.290ms returns 0
T4E28 000:405.106 JLINK_CORESIGHT_ReadAPDPReg(AP reg 0x03)
T4E28 000:405.343   Value=0x00000002
T4E28 000:405.379 - 0.272ms returns 0
T4E28 000:405.399 JLINK_CORESIGHT_ReadAPDPReg(AP reg 0x03)
T4E28 000:405.620   Value=0x00000002
T4E28 000:405.648 - 0.249ms returns 0
T4E28 000:405.667 JLINK_CORESIGHT_ReadAPDPReg(AP reg 0x03)
T4E28 000:405.926   Value=0x00000002
T4E28 000:405.954 - 0.287ms returns 0
T4E28 000:405.973 JLINK_CORESIGHT_ReadAPDPReg(AP reg 0x03)
T4E28 000:406.217   Value=0x00000002
T4E28 000:406.428 - 0.454ms returns 0
T4E28 000:406.466 JLINK_CORESIGHT_ReadAPDPReg(AP reg 0x03)
T4E28 000:406.795   Value=0x00000002
T4E28 000:406.875 - 0.408ms returns 0
T4E28 000:406.911 JLINK_CORESIGHT_ReadAPDPReg(AP reg 0x03)
T4E28 000:407.214   Value=0x00000002
T4E28 000:407.298 - 0.387ms returns 0
T4E28 000:407.352 JLINK_CORESIGHT_ReadAPDPReg(AP reg 0x03)
T4E28 000:407.655   Value=0x00000002
T4E28 000:407.733 - 0.381ms returns 0
T4E28 000:407.770 JLINK_CORESIGHT_ReadAPDPReg(AP reg 0x03)
T4E28 000:408.103   Value=0x00000002
T4E28 000:408.189 - 0.418ms returns 0
T4E28 000:408.225 JLINK_CORESIGHT_ReadAPDPReg(AP reg 0x03)
T4E28 000:408.520   Value=0x00000002
T4E28 000:408.572 - 0.347ms returns 0
T4E28 000:408.594 JLINK_CORESIGHT_ReadAPDPReg(AP reg 0x03)
T4E28 000:408.860   Value=0x00000002
T4E28 000:408.889 - 0.294ms returns 0
T4E28 000:408.908 JLINK_CORESIGHT_ReadAPDPReg(AP reg 0x03)
T4E28 000:409.189   Value=0x00000002
T4E28 000:409.219 - 0.311ms returns 0
T4E28 000:409.238 JLINK_CORESIGHT_ReadAPDPReg(AP reg 0x03)
T4E28 000:409.471   Value=0x00000002
T4E28 000:409.522 - 0.284ms returns 0
T4E28 000:409.545 JLINK_CORESIGHT_ReadAPDPReg(AP reg 0x03)
T4E28 000:409.798   Value=0x00000002
T4E28 000:409.826 - 0.281ms returns 0
T4E28 000:409.846 JLINK_CORESIGHT_ReadAPDPReg(AP reg 0x03)
T4E28 000:410.094   Value=0x00000002
T4E28 000:410.121 - 0.275ms returns 0
T4E28 000:410.140 JLINK_CORESIGHT_ReadAPDPReg(AP reg 0x03)
T4E28 000:410.366   Value=0x00000002
T4E28 000:410.394 - 0.253ms returns 0
T4E28 000:410.413 JLINK_CORESIGHT_ReadAPDPReg(AP reg 0x03)
T4E28 000:410.675   Value=0x00000002
T4E28 000:410.702 - 0.289ms returns 0
T4E28 000:410.721 JLINK_CORESIGHT_ReadAPDPReg(AP reg 0x03)
T4E28 000:410.941   Value=0x00000002
T4E28 000:410.969 - 0.248ms returns 0
T4E28 000:410.988 JLINK_CORESIGHT_ReadAPDPReg(AP reg 0x03)
T4E28 000:411.222   Value=0x00000002
T4E28 000:411.260 - 0.271ms returns 0
T4E28 000:411.278 JLINK_CORESIGHT_ReadAPDPReg(AP reg 0x03)
T4E28 000:411.492   Value=0x00000002
T4E28 000:411.520 - 0.241ms returns 0
T4E28 000:411.539 JLINK_CORESIGHT_ReadAPDPReg(AP reg 0x03)
T4E28 000:411.799   Value=0x00000002
T4E28 000:411.826 - 0.287ms returns 0
T4E28 000:411.845 JLINK_CORESIGHT_ReadAPDPReg(AP reg 0x03)
T4E28 000:412.067   Value=0x00000002
T4E28 000:412.106 - 0.261ms returns 0
T4E28 000:412.125 JLINK_CORESIGHT_ReadAPDPReg(AP reg 0x03)
T4E28 000:412.347   Value=0x00000002
T4E28 000:412.374 - 0.249ms returns 0
T4E28 000:412.393 JLINK_CORESIGHT_ReadAPDPReg(AP reg 0x03)
T4E28 000:412.617   Value=0x00000002
T4E28 000:412.644 - 0.251ms returns 0
T4E28 000:412.663 JLINK_CORESIGHT_ReadAPDPReg(AP reg 0x03)
T4E28 000:412.926   Value=0x00000002
T4E28 000:412.954 - 0.290ms returns 0
T4E28 000:412.973 JLINK_CORESIGHT_ReadAPDPReg(AP reg 0x03)
T4E28 000:413.199   Value=0x00000002
T4E28 000:413.241 - 0.267ms returns 0
T4E28 000:413.261 JLINK_CORESIGHT_ReadAPDPReg(AP reg 0x03)
T4E28 000:413.549   Value=0x00000002
T4E28 000:413.580 - 0.318ms returns 0
T4E28 000:413.600 JLINK_CORESIGHT_ReadAPDPReg(AP reg 0x03)
T4E28 000:413.867   Value=0x00000002
T4E28 000:413.896 - 0.296ms returns 0
T4E28 000:413.915 JLINK_CORESIGHT_ReadAPDPReg(AP reg 0x03)
T4E28 000:414.170   Value=0x00000002
T4E28 000:414.209 - 0.294ms returns 0
T4E28 000:414.230 JLINK_CORESIGHT_ReadAPDPReg(AP reg 0x03)
T4E28 000:414.490   Value=0x00000002
T4E28 000:414.521 - 0.291ms returns 0
T4E28 000:414.540 JLINK_CORESIGHT_ReadAPDPReg(AP reg 0x03)
T4E28 000:414.798   Value=0x00000002
T4E28 000:414.829 - 0.289ms returns 0
T4E28 000:414.848 JLINK_CORESIGHT_ReadAPDPReg(AP reg 0x03)
T4E28 000:415.250   Value=0x00000002
T4E28 000:415.397 - 0.548ms returns 0
T4E28 000:415.485 JLINK_CORESIGHT_ReadAPDPReg(AP reg 0x03)
T4E28 000:415.802   Value=0x00000002
T4E28 000:415.849 - 0.364ms returns 0
T4E28 000:416.516 JLINK_CORESIGHT_ReadAPDPReg(AP reg 0x03)
T4E28 000:416.768   Value=0x00000002
T4E28 000:416.796 - 0.282ms returns 0
T4E28 000:416.815 JLINK_CORESIGHT_ReadAPDPReg(AP reg 0x03)
T4E28 000:417.041   Value=0x00000002
T4E28 000:417.069 - 0.254ms returns 0
T4E28 000:417.088 JLINK_CORESIGHT_ReadAPDPReg(AP reg 0x03)
T4E28 000:417.478   Value=0x00000002
T4E28 000:417.506 - 0.418ms returns 0
T4E28 000:417.525 JLINK_CORESIGHT_ReadAPDPReg(AP reg 0x03)
T4E28 000:417.742   Value=0x00000002
T4E28 000:417.770 - 0.245ms returns 0
T4E28 000:417.789 JLINK_CORESIGHT_ReadAPDPReg(AP reg 0x03)
T4E28 000:418.048   Value=0x00000002
T4E28 000:418.076 - 0.287ms returns 0
T4E28 000:418.095 JLINK_CORESIGHT_ReadAPDPReg(AP reg 0x03)
T4E28 000:418.425   Value=0x00000002
T4E28 000:418.463 - 0.367ms returns 0
T4E28 000:418.483 JLINK_CORESIGHT_ReadAPDPReg(AP reg 0x03)
T4E28 000:418.763   Value=0x00000002
T4E28 000:418.795 - 0.311ms returns 0
T4E28 000:418.815 JLINK_CORESIGHT_ReadAPDPReg(AP reg 0x03)
T4E28 000:419.171   Value=0x00000000
T4E28 000:419.262 - 0.447ms returns 0
T4E28 000:419.302 JLINK_CORESIGHT_WriteAPDPReg(AP reg 0x00, 0x80000002)
T4E28 000:419.989 - 0.685ms returns 0
T4E28 000:420.044 JLINK_CORESIGHT_WriteAPDPReg(AP reg 0x01, 0x80011130)
T4E28 000:420.246 - 0.201ms returns 0
T4E28 000:420.270 JLINK_CORESIGHT_ReadAPDPReg(AP reg 0x03)
T4E28 000:420.550   Value=0x000000C6
T4E28 000:420.637 - 0.366ms returns 0
T4E28 000:420.664 JLINK_CORESIGHT_WriteAPDPReg(AP reg 0x00, 0x80000002)
T4E28 000:420.855 - 0.190ms returns 0
T4E28 000:420.877 JLINK_CORESIGHT_WriteAPDPReg(AP reg 0x01, 0x80011140)
T4E28 000:421.141 - 0.264ms returns 0
T4E28 000:421.164 JLINK_CORESIGHT_ReadAPDPReg(AP reg 0x03)
T4E28 000:421.394   Value=0x00000002
T4E28 000:421.421 - 0.257ms returns 0
T4E28 000:421.440 JLINK_CORESIGHT_WriteAPDPReg(AP reg 0x00, 0x80000002)
T4E28 000:421.710 - 0.269ms returns 0
T4E28 000:421.790 JLINK_CORESIGHT_WriteAPDPReg(AP reg 0x01, 0x80011120)
T4E28 000:422.160 - 0.369ms returns 0
T4E28 000:422.243 JLINK_CORESIGHT_WriteAPDPReg(AP reg 0x03, 0x3A010001)
T4E28 000:422.494 - 0.251ms returns 0
T4E28 000:422.551 JLINK_CORESIGHT_WriteAPDPReg(AP reg 0x00, 0x80000002)
T4E28 000:422.950 - 0.399ms returns 0
T4E28 000:423.013 JLINK_CORESIGHT_WriteAPDPReg(AP reg 0x01, 0x80011140)
T4E28 000:423.272 - 0.258ms returns 0
T4E28 000:423.321 JLINK_CORESIGHT_ReadAPDPReg(AP reg 0x03)
T4E28 000:423.719   Value=0x00000002
T4E28 000:423.828 - 0.506ms returns 0
T4E28 000:423.890 JLINK_CORESIGHT_WriteAPDPReg(AP reg 0x00, 0x80000002)
T4E28 000:424.264 - 0.375ms returns 0
T4E28 000:424.327 JLINK_CORESIGHT_WriteAPDPReg(AP reg 0x01, 0x80011120)
T4E28 000:424.750 - 0.422ms returns 0
T4E28 000:424.824 JLINK_CORESIGHT_WriteAPDPReg(AP reg 0x03, 0x000003C5)
T4E28 000:425.147 - 0.323ms returns 0
T4E28 000:425.190 JLINK_CORESIGHT_WriteAPDPReg(AP reg 0x00, 0x80000002)
T4E28 000:425.394 - 0.204ms returns 0
T4E28 000:425.415 JLINK_CORESIGHT_WriteAPDPReg(AP reg 0x01, 0x80011140)
T4E28 000:425.608 - 0.192ms returns 0
T4E28 000:425.634 JLINK_CORESIGHT_ReadAPDPReg(AP reg 0x03)
T4E28 000:425.950   Value=0x00000002
T4E28 000:426.032 - 0.397ms returns 0
T4E28 000:426.071 JLINK_CORESIGHT_ReadAPDPReg(AP reg 0x03)
T4E28 000:426.363   Value=0x00000002
T4E28 000:426.456 - 0.385ms returns 0
T4E28 000:426.480 JLINK_CORESIGHT_ReadAPDPReg(AP reg 0x03)
T4E28 000:426.808   Value=0x00000002
T4E28 000:426.843 - 0.363ms returns 0
T4E28 000:426.865 JLINK_CORESIGHT_ReadAPDPReg(AP reg 0x03)
T4E28 000:427.222   Value=0x00000002
T4E28 000:427.306 - 0.441ms returns 0
T4E28 000:427.347 JLINK_CORESIGHT_ReadAPDPReg(AP reg 0x03)
T4E28 000:427.728   Value=0x00000000
T4E28 000:427.810 - 0.462ms returns 0
T4E28 000:427.851 JLINK_CORESIGHT_WriteAPDPReg(AP reg 0x00, 0x80000002)
T4E28 000:428.152 - 0.300ms returns 0
T4E28 000:428.203 JLINK_CORESIGHT_WriteAPDPReg(AP reg 0x01, 0x80011130)
T4E28 000:428.444 - 0.240ms returns 0
T4E28 000:428.499 JLINK_CORESIGHT_ReadAPDPReg(AP reg 0x03)
T4E28 000:428.791   Value=0x3A2A0081
T4E28 000:428.896 - 0.397ms returns 0
T4E28 000:428.947 JLINK_CORESIGHT_WriteAPDPReg(AP reg 0x00, 0x80000002)
T4E28 000:429.260 - 0.312ms returns 0
T4E28 000:429.318 JLINK_CORESIGHT_WriteAPDPReg(AP reg 0x01, 0x80011140)
T4E28 000:429.528 - 0.210ms returns 0
T4E28 000:429.552 JLINK_CORESIGHT_ReadAPDPReg(AP reg 0x03)
T4E28 000:429.847   Value=0x00000000
T4E28 000:429.901 - 0.349ms returns 0
T4E28 000:429.923 JLINK_CORESIGHT_WriteAPDPReg(AP reg 0x00, 0x80000002)
T4E28 000:430.170 - 0.247ms returns 0
T4E28 000:430.195 JLINK_CORESIGHT_WriteAPDPReg(AP reg 0x01, 0x80011130)
T4E28 000:430.379 - 0.184ms returns 0
T4E28 000:430.401 JLINK_CORESIGHT_ReadAPDPReg(AP reg 0x03)
T4E28 000:430.631   Value=0x808D5B00
T4E28 000:430.658 - 0.257ms returns 0
T4E28 000:430.679 JLINK_CORESIGHT_WriteAPDPReg(AP reg 0x00, 0x80000002)
T4E28 000:430.853 - 0.174ms returns 0
T4E28 000:430.875 JLINK_CORESIGHT_WriteAPDPReg(AP reg 0x01, 0x80011140)
T4E28 000:431.067 - 0.192ms returns 0
T4E28 000:431.090 JLINK_CORESIGHT_ReadAPDPReg(AP reg 0x03)
T4E28 000:431.317   Value=0x00000000
T4E28 000:431.345 - 0.255ms returns 0
T4E28 000:431.364 JLINK_CORESIGHT_WriteAPDPReg(AP reg 0x00, 0x80000002)
T4E28 000:431.542 - 0.178ms returns 0
T4E28 000:431.564 JLINK_CORESIGHT_WriteAPDPReg(AP reg 0x01, 0x80011130)
T4E28 000:431.895 - 0.332ms returns 0
T4E28 000:431.918 JLINK_CORESIGHT_ReadAPDPReg(AP reg 0x03)
T4E28 000:432.145   Value=0x0206070A
T4E28 000:432.172 - 0.254ms returns 0
T4E28 000:432.191 JLINK_CORESIGHT_WriteAPDPReg(AP reg 0x00, 0x80000002)
T4E28 000:432.363 - 0.172ms returns 0
T4E28 000:432.385 JLINK_CORESIGHT_WriteAPDPReg(AP reg 0x01, 0x80011140)
T4E28 000:432.556 - 0.171ms returns 0
T4E28 000:432.578 JLINK_CORESIGHT_ReadAPDPReg(AP reg 0x03)
T4E28 000:432.846   Value=0x00000000
T4E28 000:432.874 - 0.295ms returns 0
T4E28 000:432.893 JLINK_CORESIGHT_WriteAPDPReg(AP reg 0x00, 0x80000002)
T4E28 000:433.067 - 0.174ms returns 0
T4E28 000:433.103 JLINK_CORESIGHT_WriteAPDPReg(AP reg 0x01, 0x80011130)
T4E28 000:433.292 - 0.189ms returns 0
T4E28 000:433.313 JLINK_CORESIGHT_ReadAPDPReg(AP reg 0x03)
T4E28 000:433.618   Value=0x2F545405
T4E28 000:433.673 - 0.360ms returns 0
T4E28 000:433.696 JLINK_CORESIGHT_WriteAPDPReg(AP reg 0x00, 0x80000002)
T4E28 000:433.900 - 0.204ms returns 0
T4E28 000:433.933 JLINK_CORESIGHT_WriteAPDPReg(AP reg 0x01, 0x80011140)
T4E28 000:434.145 - 0.211ms returns 0
T4E28 000:434.167 JLINK_CORESIGHT_ReadAPDPReg(AP reg 0x03)
T4E28 000:434.391   Value=0x00000000
T4E28 000:434.419 - 0.252ms returns 0
T4E28 000:434.438 JLINK_CORESIGHT_WriteAPDPReg(AP reg 0x00, 0x80000002)
T4E28 000:434.624 - 0.185ms returns 0
T4E28 000:434.658 JLINK_CORESIGHT_WriteAPDPReg(AP reg 0x01, 0x80011130)
T4E28 000:434.885 - 0.227ms returns 0
T4E28 000:434.913 JLINK_CORESIGHT_ReadAPDPReg(AP reg 0x03)
T4E28 000:435.170   Value=0x548D9907
T4E28 000:435.201 - 0.288ms returns 0
T4E28 000:435.221 JLINK_CORESIGHT_WriteAPDPReg(AP reg 0x00, 0x80000002)
T4E28 000:435.528 - 0.307ms returns 0
T4E28 000:435.556 JLINK_CORESIGHT_WriteAPDPReg(AP reg 0x01, 0x80011140)
T4E28 000:435.762 - 0.205ms returns 0
T4E28 000:435.786 JLINK_CORESIGHT_ReadAPDPReg(AP reg 0x03)
T4E28 000:436.046   Value=0x00000000
T4E28 000:436.078 - 0.292ms returns 0
T4E28 000:436.098 JLINK_CORESIGHT_WriteAPDPReg(AP reg 0x00, 0x80000002)
T4E28 000:436.327 - 0.228ms returns 0
T4E28 000:436.376 JLINK_CORESIGHT_WriteAPDPReg(AP reg 0x01, 0x80011130)
T4E28 000:436.624 - 0.248ms returns 0
T4E28 000:436.648 JLINK_CORESIGHT_ReadAPDPReg(AP reg 0x03)
T4E28 000:436.925   Value=0x35375236
T4E28 000:436.952 - 0.303ms returns 0
T4E28 000:436.971 JLINK_CORESIGHT_WriteAPDPReg(AP reg 0x00, 0x80000002)
T4E28 000:437.193 - 0.221ms returns 0
T4E28 000:437.214 JLINK_CORESIGHT_WriteAPDPReg(AP reg 0x01, 0x80011140)
T4E28 000:437.415 - 0.200ms returns 0
T4E28 000:437.437 JLINK_CORESIGHT_ReadAPDPReg(AP reg 0x03)
T4E28 000:437.699   Value=0x00000000
T4E28 000:437.727 - 0.289ms returns 0
T4E28 000:437.746 JLINK_CORESIGHT_WriteAPDPReg(AP reg 0x00, 0x80000002)
T4E28 000:437.941 - 0.194ms returns 0
T4E28 000:437.963 JLINK_CORESIGHT_WriteAPDPReg(AP reg 0x01, 0x80011130)
T4E28 000:438.181 - 0.218ms returns 0
T4E28 000:438.233 JLINK_CORESIGHT_ReadAPDPReg(AP reg 0x03)
T4E28 000:438.482   Value=0x5A052D31
T4E28 000:438.510 - 0.277ms returns 0
T4E28 000:438.530 JLINK_CORESIGHT_WriteAPDPReg(AP reg 0x00, 0x80000002)
T4E28 000:438.749 - 0.219ms returns 0
T4E28 000:438.771 JLINK_CORESIGHT_WriteAPDPReg(AP reg 0x01, 0x80011140)
T4E28 000:438.994 - 0.223ms returns 0
T4E28 000:439.016 JLINK_CORESIGHT_ReadAPDPReg(AP reg 0x03)
T4E28 000:439.307   Value=0x00000000
T4E28 000:439.401 - 0.384ms returns 0
T4E28 000:439.440 JLINK_CORESIGHT_WriteAPDPReg(AP reg 0x00, 0x80000002)
T4E28 000:439.672 - 0.232ms returns 0
T4E28 000:439.707 JLINK_CORESIGHT_WriteAPDPReg(AP reg 0x01, 0x80011130)
T4E28 000:439.919 - 0.211ms returns 0
T4E28 000:439.941 JLINK_CORESIGHT_ReadAPDPReg(AP reg 0x03)
T4E28 000:440.178   Value=0x4B37526F
T4E28 000:440.207 - 0.265ms returns 0
T4E28 000:440.227 JLINK_CORESIGHT_WriteAPDPReg(AP reg 0x00, 0x80000002)
T4E28 000:440.417 - 0.190ms returns 0
T4E28 000:440.439 JLINK_CORESIGHT_WriteAPDPReg(AP reg 0x01, 0x80011140)
T4E28 000:440.610 - 0.171ms returns 0
T4E28 000:440.632 JLINK_CORESIGHT_ReadAPDPReg(AP reg 0x03)
T4E28 000:440.867   Value=0x00000000
T4E28 000:440.894 - 0.263ms returns 0
T4E28 000:440.913 JLINK_CORESIGHT_WriteAPDPReg(AP reg 0x00, 0x80000002)
T4E28 000:441.146 - 0.233ms returns 0
T4E28 000:441.182 JLINK_CORESIGHT_WriteAPDPReg(AP reg 0x01, 0x80011130)
T4E28 000:441.359 - 0.177ms returns 0
T4E28 000:441.387 JLINK_CORESIGHT_ReadAPDPReg(AP reg 0x03)
T4E28 000:441.645   Value=0x32543841
T4E28 000:441.673 - 0.286ms returns 0
T4E28 000:441.696 JLINK_CORESIGHT_WriteAPDPReg(AP reg 0x00, 0x80000002)
T4E28 000:441.892 - 0.196ms returns 0
T4E28 000:441.918 JLINK_CORESIGHT_WriteAPDPReg(AP reg 0x01, 0x80011140)
T4E28 000:442.147 - 0.229ms returns 0
T4E28 000:442.173 JLINK_CORESIGHT_ReadAPDPReg(AP reg 0x03)
T4E28 000:442.461   Value=0x00000000
T4E28 000:442.489 - 0.315ms returns 0
T4E28 000:442.512 JLINK_CORESIGHT_WriteAPDPReg(AP reg 0x00, 0x80000002)
T4E28 000:442.693 - 0.181ms returns 0
T4E28 000:442.722 JLINK_CORESIGHT_WriteAPDPReg(AP reg 0x01, 0x80011130)
T4E28 000:442.917 - 0.194ms returns 0
T4E28 000:442.943 JLINK_CORESIGHT_ReadAPDPReg(AP reg 0x03)
T4E28 000:443.196   Value=0x434C465A
T4E28 000:443.225 - 0.282ms returns 0
T4E28 000:443.249 JLINK_CORESIGHT_WriteAPDPReg(AP reg 0x00, 0x80000002)
T4E28 000:443.472 - 0.223ms returns 0
T4E28 000:443.527 JLINK_CORESIGHT_WriteAPDPReg(AP reg 0x01, 0x80011140)
T4E28 000:443.722 - 0.195ms returns 0
T4E28 000:443.798 JLINK_CORESIGHT_ReadAPDPReg(AP reg 0x03)
T4E28 000:444.052   Value=0x00000000
T4E28 000:444.089 - 0.291ms returns 0
T4E28 000:444.117 JLINK_CORESIGHT_WriteAPDPReg(AP reg 0x00, 0x80000002)
T4E28 000:444.445 - 0.328ms returns 0
T4E28 000:444.479 JLINK_CORESIGHT_WriteAPDPReg(AP reg 0x01, 0x80011130)
T4E28 000:444.727 - 0.247ms returns 0
T4E28 000:445.571 JLINK_CORESIGHT_ReadAPDPReg(AP reg 0x03)
T4E28 000:445.870   Value=0x20204341
T4E28 000:445.899 - 0.332ms returns 0
T4E28 000:445.919 JLINK_CORESIGHT_WriteAPDPReg(AP reg 0x00, 0x80000002)
T4E28 000:446.147 - 0.228ms returns 0
T4E28 000:446.169 JLINK_CORESIGHT_WriteAPDPReg(AP reg 0x01, 0x80011140)
T4E28 000:446.342 - 0.173ms returns 0
T4E28 000:446.387 JLINK_CORESIGHT_ReadAPDPReg(AP reg 0x03)
T4E28 000:446.617   Value=0x00000000
T4E28 000:446.645 - 0.258ms returns 0
T4E28 000:446.663 JLINK_CORESIGHT_WriteAPDPReg(AP reg 0x00, 0x80000002)
T4E28 000:446.879 - 0.215ms returns 0
T4E28 000:446.901 JLINK_CORESIGHT_WriteAPDPReg(AP reg 0x01, 0x80011130)
T4E28 000:447.147 - 0.246ms returns 0
T4E28 000:447.169 JLINK_CORESIGHT_ReadAPDPReg(AP reg 0x03)
T4E28 000:447.396   Value=0x0003B820
T4E28 000:447.423 - 0.255ms returns 0
T4E28 000:447.502 JLINK_CORESIGHT_WriteAPDPReg(AP reg 0x00, 0x80000002)
T4E28 000:447.686 - 0.184ms returns 0
T4E28 000:447.707 JLINK_CORESIGHT_WriteAPDPReg(AP reg 0x01, 0x80011140)
T4E28 000:447.891 - 0.184ms returns 0
T4E28 000:447.914 JLINK_CORESIGHT_ReadAPDPReg(AP reg 0x03)
T4E28 000:448.171   Value=0x00000002
T4E28 000:448.205 - 0.290ms returns 0
T4E28 000:448.225 JLINK_CORESIGHT_WriteAPDPReg(AP reg 0x00, 0x80000002)
T4E28 000:448.417 - 0.192ms returns 0
T4E28 000:448.439 JLINK_CORESIGHT_WriteAPDPReg(AP reg 0x01, 0x80011120)
T4E28 000:448.611 - 0.172ms returns 0
T4E28 000:448.633 JLINK_CORESIGHT_WriteAPDPReg(AP reg 0x03, 0x39020001)
T4E28 000:448.805 - 0.172ms returns 0
T4E28 000:448.826 JLINK_CORESIGHT_WriteAPDPReg(AP reg 0x00, 0x80000002)
T4E28 000:448.999 - 0.172ms returns 0
T4E28 000:449.021 JLINK_CORESIGHT_WriteAPDPReg(AP reg 0x01, 0x80011140)
T4E28 000:449.249 - 0.228ms returns 0
T4E28 000:449.271 JLINK_CORESIGHT_ReadAPDPReg(AP reg 0x03)
T4E28 000:449.552   Value=0x00000002
T4E28 000:449.579 - 0.308ms returns 0
T4E28 000:449.599 JLINK_CORESIGHT_WriteAPDPReg(AP reg 0x00, 0x80000002)
T4E28 000:449.792 - 0.193ms returns 0
T4E28 000:449.814 JLINK_CORESIGHT_WriteAPDPReg(AP reg 0x01, 0x80011120)
T4E28 000:449.989 - 0.175ms returns 0
T4E28 000:450.011 JLINK_CORESIGHT_WriteAPDPReg(AP reg 0x03, 0x0003B312)
T4E28 000:450.254 - 0.243ms returns 0
T4E28 000:450.276 JLINK_CORESIGHT_WriteAPDPReg(AP reg 0x00, 0x80000002)
T4E28 000:450.448 - 0.171ms returns 0
T4E28 000:450.470 JLINK_CORESIGHT_WriteAPDPReg(AP reg 0x01, 0x80011140)
T4E28 000:450.667 - 0.197ms returns 0
T4E28 000:450.689 JLINK_CORESIGHT_ReadAPDPReg(AP reg 0x03)
T4E28 000:450.935   Value=0x00000000
T4E28 000:450.962 - 0.273ms returns 0
T4E28 000:450.981 JLINK_CORESIGHT_WriteAPDPReg(AP reg 0x00, 0x80000002)
T4E28 000:451.173 - 0.191ms returns 0
T4E28 000:451.214 JLINK_CORESIGHT_WriteAPDPReg(AP reg 0x01, 0x80011130)
T4E28 000:451.391 - 0.177ms returns 0
T4E28 000:451.416 JLINK_CORESIGHT_ReadAPDPReg(AP reg 0x03)
T4E28 000:451.641   Value=0xB90A0081
T4E28 000:451.669 - 0.253ms returns 0
T4E28 000:451.688 JLINK_CORESIGHT_WriteAPDPReg(AP reg 0x00, 0x80000002)
T4E28 000:451.858 - 0.171ms returns 0
T4E28 000:451.880 JLINK_CORESIGHT_WriteAPDPReg(AP reg 0x01, 0x80011140)
T4E28 000:452.067 - 0.187ms returns 0
T4E28 000:452.095 JLINK_CORESIGHT_ReadAPDPReg(AP reg 0x03)
T4E28 000:452.466   Value=0x00000000
T4E28 000:452.531 - 0.435ms returns 0
T4E28 000:452.550 JLINK_CORESIGHT_WriteAPDPReg(AP reg 0x00, 0x80000002)
T4E28 000:452.721 - 0.171ms returns 0
T4E28 000:452.743 JLINK_CORESIGHT_WriteAPDPReg(AP reg 0x01, 0x80011130)
T4E28 000:452.917 - 0.174ms returns 0
T4E28 000:452.939 JLINK_CORESIGHT_ReadAPDPReg(AP reg 0x03)
T4E28 000:453.173   Value=0xFFFFFFC0
T4E28 000:453.200 - 0.261ms returns 0
T4E28 000:453.219 JLINK_CORESIGHT_WriteAPDPReg(AP reg 0x00, 0x80000002)
T4E28 000:453.418 - 0.198ms returns 0
T4E28 000:453.440 JLINK_CORESIGHT_WriteAPDPReg(AP reg 0x01, 0x80011140)
T4E28 000:453.622 - 0.182ms returns 0
T4E28 000:453.644 JLINK_CORESIGHT_ReadAPDPReg(AP reg 0x03)
T4E28 000:453.926   Value=0x00000000
T4E28 000:453.953 - 0.309ms returns 0
T4E28 000:453.972 JLINK_CORESIGHT_WriteAPDPReg(AP reg 0x00, 0x80000002)
T4E28 000:454.234 - 0.261ms returns 0
T4E28 000:454.359 JLINK_CORESIGHT_WriteAPDPReg(AP reg 0x01, 0x80011130)
T4E28 000:454.617 - 0.259ms returns 0
T4E28 000:454.642 JLINK_CORESIGHT_ReadAPDPReg(AP reg 0x03)
T4E28 000:454.867   Value=0xFFFFFFFF
T4E28 000:454.900 - 0.258ms returns 0
T4E28 000:454.919 JLINK_CORESIGHT_WriteAPDPReg(AP reg 0x00, 0x80000002)
T4E28 000:455.144 - 0.225ms returns 0
T4E28 000:455.166 JLINK_CORESIGHT_WriteAPDPReg(AP reg 0x01, 0x80011140)
T4E28 000:455.369 - 0.203ms returns 0
T4E28 000:455.391 JLINK_CORESIGHT_ReadAPDPReg(AP reg 0x03)
T4E28 000:455.677   Value=0x00000000
T4E28 000:455.705 - 0.313ms returns 0
T4E28 000:455.724 JLINK_CORESIGHT_WriteAPDPReg(AP reg 0x00, 0x80000002)
T4E28 000:455.916 - 0.192ms returns 0
T4E28 000:455.938 JLINK_CORESIGHT_WriteAPDPReg(AP reg 0x01, 0x80011130)
T4E28 000:456.246 - 0.307ms returns 0
T4E28 000:456.366 JLINK_CORESIGHT_ReadAPDPReg(AP reg 0x03)
T4E28 000:456.669   Value=0x000385FF
T4E28 000:456.700 - 0.334ms returns 0
T4E28 000:456.785 JLINK_CORESIGHT_WriteAPDPReg(AP reg 0x00, 0x80000002)
T4E28 000:456.975 - 0.189ms returns 0
T4E28 000:456.996 JLINK_CORESIGHT_WriteAPDPReg(AP reg 0x01, 0x80011140)
T4E28 000:457.171 - 0.174ms returns 0
T4E28 000:457.192 JLINK_CORESIGHT_ReadAPDPReg(AP reg 0x03)
T4E28 000:457.417   Value=0x00000002
T4E28 000:457.444 - 0.252ms returns 0
T4E28 000:457.463 JLINK_CORESIGHT_WriteAPDPReg(AP reg 0x00, 0x80000002)
T4E28 000:457.641 - 0.177ms returns 0
T4E28 000:457.662 JLINK_CORESIGHT_WriteAPDPReg(AP reg 0x01, 0x80011120)
T4E28 000:457.832 - 0.170ms returns 0
T4E28 000:457.853 JLINK_CORESIGHT_WriteAPDPReg(AP reg 0x03, 0x2C010001)
T4E28 000:458.041 - 0.187ms returns 0
T4E28 000:458.063 JLINK_CORESIGHT_WriteAPDPReg(AP reg 0x00, 0x80000002)
T4E28 000:458.252 - 0.189ms returns 0
T4E28 000:458.274 JLINK_CORESIGHT_WriteAPDPReg(AP reg 0x01, 0x80011140)
T4E28 000:458.445 - 0.171ms returns 0
T4E28 000:458.467 JLINK_CORESIGHT_ReadAPDPReg(AP reg 0x03)
T4E28 000:458.692   Value=0x00000002
T4E28 000:458.719 - 0.252ms returns 0
T4E28 000:458.738 JLINK_CORESIGHT_WriteAPDPReg(AP reg 0x00, 0x80000002)
T4E28 000:458.917 - 0.179ms returns 0
T4E28 000:458.938 JLINK_CORESIGHT_WriteAPDPReg(AP reg 0x01, 0x80011120)
T4E28 000:459.147 - 0.208ms returns 0
T4E28 000:459.169 JLINK_CORESIGHT_WriteAPDPReg(AP reg 0x03, 0x000003D3)
T4E28 000:459.358 - 0.189ms returns 0
T4E28 000:459.380 JLINK_CORESIGHT_WriteAPDPReg(AP reg 0x00, 0x80000002)
T4E28 000:459.567 - 0.187ms returns 0
T4E28 000:459.589 JLINK_CORESIGHT_WriteAPDPReg(AP reg 0x01, 0x80011140)
T4E28 000:459.824 - 0.233ms returns 0
T4E28 000:459.904 JLINK_CORESIGHT_ReadAPDPReg(AP reg 0x03)
T4E28 000:460.173   Value=0x00000002
T4E28 000:460.218 - 0.314ms returns 0
T4E28 000:460.240 JLINK_CORESIGHT_ReadAPDPReg(AP reg 0x03)
T4E28 000:460.518   Value=0x00000002
T4E28 000:460.546 - 0.305ms returns 0
T4E28 000:460.564 JLINK_CORESIGHT_ReadAPDPReg(AP reg 0x03)
T4E28 000:460.820   Value=0x00000002
T4E28 000:460.911 - 0.346ms returns 0
T4E28 000:460.949 JLINK_CORESIGHT_ReadAPDPReg(AP reg 0x03)
T4E28 000:461.307   Value=0x00000002
T4E28 000:461.357 - 0.408ms returns 0
T4E28 000:461.385 JLINK_CORESIGHT_ReadAPDPReg(AP reg 0x03)
T4E28 000:461.617   Value=0x00000002
T4E28 000:461.645 - 0.260ms returns 0
T4E28 000:461.664 JLINK_CORESIGHT_ReadAPDPReg(AP reg 0x03)
T4E28 000:461.919   Value=0x00000002
T4E28 000:461.947 - 0.283ms returns 0
T4E28 000:461.966 JLINK_CORESIGHT_ReadAPDPReg(AP reg 0x03)
T4E28 000:462.196   Value=0x00000002
T4E28 000:462.228 - 0.262ms returns 0
T4E28 000:462.248 JLINK_CORESIGHT_ReadAPDPReg(AP reg 0x03)
T4E28 000:462.466   Value=0x00000002
T4E28 000:462.494 - 0.245ms returns 0
T4E28 000:462.513 JLINK_CORESIGHT_ReadAPDPReg(AP reg 0x03)
T4E28 000:462.742   Value=0x00000002
T4E28 000:462.769 - 0.256ms returns 0
T4E28 000:462.788 JLINK_CORESIGHT_ReadAPDPReg(AP reg 0x03)
T4E28 000:463.050   Value=0x00000002
T4E28 000:463.078 - 0.290ms returns 0
T4E28 000:463.097 JLINK_CORESIGHT_ReadAPDPReg(AP reg 0x03)
T4E28 000:463.316   Value=0x00000002
T4E28 000:463.344 - 0.246ms returns 0
T4E28 000:463.363 JLINK_CORESIGHT_ReadAPDPReg(AP reg 0x03)
T4E28 000:463.591   Value=0x00000000
T4E28 000:463.619 - 0.256ms returns 0
T4E28 000:463.638 JLINK_CORESIGHT_WriteAPDPReg(AP reg 0x00, 0x80000002)
T4E28 000:463.816 - 0.178ms returns 0
T4E28 000:463.838 JLINK_CORESIGHT_WriteAPDPReg(AP reg 0x01, 0x80011130)
T4E28 000:464.042 - 0.203ms returns 0
T4E28 000:464.063 JLINK_CORESIGHT_ReadAPDPReg(AP reg 0x03)
T4E28 000:464.341   Value=0x2C020081
T4E28 000:464.376 - 0.313ms returns 0
T4E28 000:464.397 JLINK_CORESIGHT_WriteAPDPReg(AP reg 0x00, 0x80000002)
T4E28 000:464.566 - 0.170ms returns 0
T4E28 000:464.589 JLINK_CORESIGHT_WriteAPDPReg(AP reg 0x01, 0x80011140)
T4E28 000:464.766 - 0.177ms returns 0
T4E28 000:464.787 JLINK_CORESIGHT_ReadAPDPReg(AP reg 0x03)
T4E28 000:465.043   Value=0x00000000
T4E28 000:465.070 - 0.282ms returns 0
T4E28 000:465.089 JLINK_CORESIGHT_WriteAPDPReg(AP reg 0x00, 0x80000002)
T4E28 000:465.268 - 0.179ms returns 0
T4E28 000:465.290 JLINK_CORESIGHT_WriteAPDPReg(AP reg 0x01, 0x80011130)
T4E28 000:465.479 - 0.188ms returns 0
T4E28 000:465.551 JLINK_CORESIGHT_ReadAPDPReg(AP reg 0x03)
T4E28 000:465.842   Value=0x0003CE04
T4E28 000:465.877 - 0.326ms returns 0
T4E28 000:465.902 JLINK_CORESIGHT_WriteAPDPReg(AP reg 0x00, 0x80000002)
T4E28 000:466.220 - 0.317ms returns 0
T4E28 000:466.334 JLINK_CORESIGHT_WriteAPDPReg(AP reg 0x01, 0x80011140)
T4E28 000:466.585 - 0.251ms returns 0
T4E28 000:466.632 JLINK_CORESIGHT_ReadAPDPReg(AP reg 0x03)
T4E28 000:466.892   Value=0x00000002
T4E28 000:466.929 - 0.297ms returns 0
T4E28 000:466.950 JLINK_CORESIGHT_WriteAPDPReg(AP reg 0x00, 0x80000002)
T4E28 000:467.148 - 0.198ms returns 0
T4E28 000:467.169 JLINK_CORESIGHT_WriteAPDPReg(AP reg 0x01, 0x80011120)
T4E28 000:467.342 - 0.172ms returns 0
T4E28 000:467.364 JLINK_CORESIGHT_WriteAPDPReg(AP reg 0x03, 0x73010001)
T4E28 000:467.541 - 0.178ms returns 0
T4E28 000:467.563 JLINK_CORESIGHT_WriteAPDPReg(AP reg 0x00, 0x80000002)
T4E28 000:467.735 - 0.171ms returns 0
T4E28 000:467.756 JLINK_CORESIGHT_WriteAPDPReg(AP reg 0x01, 0x80011140)
T4E28 000:467.941 - 0.185ms returns 0
T4E28 000:467.963 JLINK_CORESIGHT_ReadAPDPReg(AP reg 0x03)
T4E28 000:468.198   Value=0x00000002
T4E28 000:468.230 - 0.266ms returns 0
T4E28 000:468.249 JLINK_CORESIGHT_WriteAPDPReg(AP reg 0x00, 0x80000002)
T4E28 000:468.462 - 0.213ms returns 0
T4E28 000:468.484 JLINK_CORESIGHT_WriteAPDPReg(AP reg 0x01, 0x80011120)
T4E28 000:468.667 - 0.182ms returns 0
T4E28 000:468.689 JLINK_CORESIGHT_WriteAPDPReg(AP reg 0x03, 0x0000038C)
T4E28 000:468.860 - 0.171ms returns 0
T4E28 000:468.882 JLINK_CORESIGHT_WriteAPDPReg(AP reg 0x00, 0x80000002)
T4E28 000:469.054 - 0.171ms returns 0
T4E28 000:469.076 JLINK_CORESIGHT_WriteAPDPReg(AP reg 0x01, 0x80011140)
T4E28 000:469.293 - 0.217ms returns 0
T4E28 000:469.316 JLINK_CORESIGHT_ReadAPDPReg(AP reg 0x03)
T4E28 000:469.542   Value=0x00000002
T4E28 000:469.570 - 0.254ms returns 0
T4E28 000:469.588 JLINK_CORESIGHT_ReadAPDPReg(AP reg 0x03)
T4E28 000:469.816   Value=0x00000002
T4E28 000:469.843 - 0.254ms returns 0
T4E28 000:469.861 JLINK_CORESIGHT_ReadAPDPReg(AP reg 0x03)
T4E28 000:470.172   Value=0x00000002
T4E28 000:470.216 - 0.355ms returns 0
T4E28 000:470.236 JLINK_CORESIGHT_ReadAPDPReg(AP reg 0x03)
T4E28 000:470.466   Value=0x00000002
T4E28 000:470.500 - 0.264ms returns 0
T4E28 000:470.519 JLINK_CORESIGHT_ReadAPDPReg(AP reg 0x03)
T4E28 000:470.741   Value=0x00000002
T4E28 000:470.768 - 0.248ms returns 0
T4E28 000:470.786 JLINK_CORESIGHT_ReadAPDPReg(AP reg 0x03)
T4E28 000:471.055   Value=0x00000002
T4E28 000:471.082 - 0.295ms returns 0
T4E28 000:471.670 JLINK_CORESIGHT_ReadAPDPReg(AP reg 0x03)
T4E28 000:471.925   Value=0x00000000
T4E28 000:471.952 - 0.282ms returns 0
T4E28 000:471.970 JLINK_CORESIGHT_WriteAPDPReg(AP reg 0x00, 0x80000002)
T4E28 000:472.244 - 0.273ms returns 0
T4E28 000:472.329 JLINK_CORESIGHT_WriteAPDPReg(AP reg 0x01, 0x80011130)
T4E28 000:472.600 - 0.271ms returns 0
T4E28 000:472.625 JLINK_CORESIGHT_ReadAPDPReg(AP reg 0x03)
T4E28 000:472.866   Value=0x73020081
T4E28 000:472.892 - 0.267ms returns 0
T4E28 000:472.911 JLINK_CORESIGHT_WriteAPDPReg(AP reg 0x00, 0x80000002)
T4E28 000:473.145 - 0.234ms returns 0
T4E28 000:473.166 JLINK_CORESIGHT_WriteAPDPReg(AP reg 0x01, 0x80011140)
T4E28 000:473.334 - 0.168ms returns 0
T4E28 000:473.355 JLINK_CORESIGHT_ReadAPDPReg(AP reg 0x03)
T4E28 000:473.591   Value=0x00000000
T4E28 000:473.626 - 0.270ms returns 0
T4E28 000:473.644 JLINK_CORESIGHT_WriteAPDPReg(AP reg 0x00, 0x80000002)
T4E28 000:473.816 - 0.172ms returns 0
T4E28 000:473.837 JLINK_CORESIGHT_WriteAPDPReg(AP reg 0x01, 0x80011130)
T4E28 000:474.015 - 0.178ms returns 0
T4E28 000:474.036 JLINK_CORESIGHT_ReadAPDPReg(AP reg 0x03)
T4E28 000:474.304   Value=0x00038902
T4E28 000:474.330 - 0.294ms returns 0
T4E28 000:474.349 JLINK_CORESIGHT_WriteAPDPReg(AP reg 0x00, 0x80000002)
T4E28 000:474.542 - 0.193ms returns 0
T4E28 000:474.563 JLINK_CORESIGHT_WriteAPDPReg(AP reg 0x01, 0x80011140)
T4E28 000:474.766 - 0.203ms returns 0
T4E28 000:474.787 JLINK_CORESIGHT_ReadAPDPReg(AP reg 0x03)
T4E28 000:475.006   Value=0x00000002
T4E28 000:475.032 - 0.245ms returns 0
T4E28 000:475.051 JLINK_CORESIGHT_WriteAPDPReg(AP reg 0x00, 0x80000002)
T4E28 000:475.252 - 0.201ms returns 0
T4E28 000:475.274 JLINK_CORESIGHT_WriteAPDPReg(AP reg 0x01, 0x80011120)
T4E28 000:475.443 - 0.169ms returns 0
T4E28 000:475.464 JLINK_CORESIGHT_WriteAPDPReg(AP reg 0x03, 0x75010001)
T4E28 000:475.640 - 0.176ms returns 0
T4E28 000:475.662 JLINK_CORESIGHT_WriteAPDPReg(AP reg 0x00, 0x80000002)
T4E28 000:475.830 - 0.168ms returns 0
T4E28 000:475.851 JLINK_CORESIGHT_WriteAPDPReg(AP reg 0x01, 0x80011140)
T4E28 000:476.041 - 0.190ms returns 0
T4E28 000:476.062 JLINK_CORESIGHT_ReadAPDPReg(AP reg 0x03)
T4E28 000:476.326   Value=0x00000002
T4E28 000:476.352 - 0.290ms returns 0
T4E28 000:476.370 JLINK_CORESIGHT_WriteAPDPReg(AP reg 0x00, 0x80000002)
T4E28 000:476.626 - 0.255ms returns 0
T4E28 000:476.648 JLINK_CORESIGHT_WriteAPDPReg(AP reg 0x01, 0x80011120)
T4E28 000:476.879 - 0.231ms returns 0
T4E28 000:476.899 JLINK_CORESIGHT_WriteAPDPReg(AP reg 0x03, 0x0000038A)
T4E28 000:477.146 - 0.247ms returns 0
T4E28 000:477.168 JLINK_CORESIGHT_WriteAPDPReg(AP reg 0x00, 0x80000002)
T4E28 000:477.357 - 0.189ms returns 0
T4E28 000:477.400 JLINK_CORESIGHT_WriteAPDPReg(AP reg 0x01, 0x80011140)
T4E28 000:477.621 - 0.221ms returns 0
T4E28 000:477.643 JLINK_CORESIGHT_ReadAPDPReg(AP reg 0x03)
T4E28 000:477.923   Value=0x00000002
T4E28 000:477.950 - 0.307ms returns 0
T4E28 000:477.969 JLINK_CORESIGHT_ReadAPDPReg(AP reg 0x03)
T4E28 000:478.221   Value=0x00000002
T4E28 000:478.255 - 0.285ms returns 0
T4E28 000:478.274 JLINK_CORESIGHT_ReadAPDPReg(AP reg 0x03)
T4E28 000:478.552   Value=0x00000002
T4E28 000:478.602 - 0.328ms returns 0
T4E28 000:478.622 JLINK_CORESIGHT_ReadAPDPReg(AP reg 0x03)
T4E28 000:478.872   Value=0x00000002
T4E28 000:478.899 - 0.276ms returns 0
T4E28 000:478.917 JLINK_CORESIGHT_ReadAPDPReg(AP reg 0x03)
T4E28 000:479.170   Value=0x00000002
T4E28 000:479.197 - 0.280ms returns 0
T4E28 000:479.214 JLINK_CORESIGHT_ReadAPDPReg(AP reg 0x03)
T4E28 000:479.441   Value=0x00000002
T4E28 000:479.469 - 0.255ms returns 0
T4E28 000:479.488 JLINK_CORESIGHT_ReadAPDPReg(AP reg 0x03)
T4E28 000:479.716   Value=0x00000000
T4E28 000:479.743 - 0.255ms returns 0
T4E28 000:479.761 JLINK_CORESIGHT_WriteAPDPReg(AP reg 0x00, 0x80000002)
T4E28 000:479.941 - 0.179ms returns 0
T4E28 000:479.962 JLINK_CORESIGHT_WriteAPDPReg(AP reg 0x01, 0x80011130)
T4E28 000:480.160 - 0.197ms returns 0
T4E28 000:480.231 JLINK_CORESIGHT_ReadAPDPReg(AP reg 0x03)
T4E28 000:480.506   Value=0x75020081
T4E28 000:480.544 - 0.313ms returns 0
T4E28 000:480.563 JLINK_CORESIGHT_WriteAPDPReg(AP reg 0x00, 0x80000002)
T4E28 000:480.737 - 0.174ms returns 0
T4E28 000:480.758 JLINK_CORESIGHT_WriteAPDPReg(AP reg 0x01, 0x80011140)
T4E28 000:480.931 - 0.172ms returns 0
T4E28 000:480.953 JLINK_CORESIGHT_ReadAPDPReg(AP reg 0x03)
T4E28 000:481.196   Value=0x00000000
T4E28 000:481.223 - 0.270ms returns 0
T4E28 000:481.242 JLINK_CORESIGHT_WriteAPDPReg(AP reg 0x00, 0x80000002)
T4E28 000:481.416 - 0.174ms returns 0
T4E28 000:481.438 JLINK_CORESIGHT_WriteAPDPReg(AP reg 0x01, 0x80011130)
T4E28 000:481.607 - 0.169ms returns 0
T4E28 000:481.628 JLINK_CORESIGHT_ReadAPDPReg(AP reg 0x03)
T4E28 000:481.923   Value=0x00038702
T4E28 000:481.949 - 0.321ms returns 0
T4E28 000:481.975 JLINK_CORESIGHT_WriteAPDPReg(AP reg 0x00, 0x80000002)
T4E28 000:482.146 - 0.170ms returns 0
T4E28 000:482.167 JLINK_CORESIGHT_WriteAPDPReg(AP reg 0x01, 0x80011140)
T4E28 000:482.337 - 0.169ms returns 0
T4E28 000:482.358 JLINK_CORESIGHT_ReadAPDPReg(AP reg 0x03)
T4E28 000:482.591   Value=0x00000002
T4E28 000:482.617 - 0.259ms returns 0
T4E28 000:482.635 JLINK_CORESIGHT_WriteAPDPReg(AP reg 0x00, 0x80000002)
T4E28 000:482.816 - 0.181ms returns 0
T4E28 000:482.837 JLINK_CORESIGHT_WriteAPDPReg(AP reg 0x01, 0x80011120)
T4E28 000:483.015 - 0.178ms returns 0
T4E28 000:483.036 JLINK_CORESIGHT_WriteAPDPReg(AP reg 0x03, 0x4F010001)
T4E28 000:483.253 - 0.217ms returns 0
T4E28 000:483.275 JLINK_CORESIGHT_WriteAPDPReg(AP reg 0x00, 0x80000002)
T4E28 000:483.450 - 0.175ms returns 0
T4E28 000:483.471 JLINK_CORESIGHT_WriteAPDPReg(AP reg 0x01, 0x80011140)
T4E28 000:483.640 - 0.169ms returns 0
T4E28 000:483.661 JLINK_CORESIGHT_ReadAPDPReg(AP reg 0x03)
T4E28 000:483.880   Value=0x00000002
T4E28 000:483.907 - 0.245ms returns 0
T4E28 000:483.925 JLINK_CORESIGHT_WriteAPDPReg(AP reg 0x00, 0x80000002)
T4E28 000:484.145 - 0.220ms returns 0
T4E28 000:484.166 JLINK_CORESIGHT_WriteAPDPReg(AP reg 0x01, 0x80011120)
T4E28 000:484.336 - 0.169ms returns 0
T4E28 000:484.357 JLINK_CORESIGHT_WriteAPDPReg(AP reg 0x03, 0x000003B0)
T4E28 000:484.541 - 0.184ms returns 0
T4E28 000:484.561 JLINK_CORESIGHT_WriteAPDPReg(AP reg 0x00, 0x80000002)
T4E28 000:484.732 - 0.170ms returns 0
T4E28 000:484.753 JLINK_CORESIGHT_WriteAPDPReg(AP reg 0x01, 0x80011140)
T4E28 000:484.941 - 0.187ms returns 0
T4E28 000:484.962 JLINK_CORESIGHT_ReadAPDPReg(AP reg 0x03)
T4E28 000:485.196   Value=0x00000002
T4E28 000:485.223 - 0.261ms returns 0
T4E28 000:485.242 JLINK_CORESIGHT_ReadAPDPReg(AP reg 0x03)
T4E28 000:485.483   Value=0x00000002
T4E28 000:485.510 - 0.268ms returns 0
T4E28 000:485.528 JLINK_CORESIGHT_ReadAPDPReg(AP reg 0x03)
T4E28 000:485.741   Value=0x00000002
T4E28 000:485.768 - 0.240ms returns 0
T4E28 000:485.786 JLINK_CORESIGHT_ReadAPDPReg(AP reg 0x03)
T4E28 000:486.047   Value=0x00000002
T4E28 000:486.074 - 0.288ms returns 0
T4E28 000:486.093 JLINK_CORESIGHT_ReadAPDPReg(AP reg 0x03)
T4E28 000:486.481   Value=0x00000002
T4E28 000:486.539 - 0.445ms returns 0
T4E28 000:486.557 JLINK_CORESIGHT_ReadAPDPReg(AP reg 0x03)
T4E28 000:486.780   Value=0x00000002
T4E28 000:486.806 - 0.249ms returns 0
T4E28 000:486.824 JLINK_CORESIGHT_ReadAPDPReg(AP reg 0x03)
T4E28 000:487.043   Value=0x00000002
T4E28 000:487.069 - 0.245ms returns 0
T4E28 000:487.088 JLINK_CORESIGHT_ReadAPDPReg(AP reg 0x03)
T4E28 000:487.341   Value=0x00000002
T4E28 000:487.368 - 0.279ms returns 0
T4E28 000:487.386 JLINK_CORESIGHT_ReadAPDPReg(AP reg 0x03)
T4E28 000:487.617   Value=0x00000000
T4E28 000:487.645 - 0.259ms returns 0
T4E28 000:487.664 JLINK_CORESIGHT_WriteAPDPReg(AP reg 0x00, 0x80000002)
T4E28 000:487.877 - 0.213ms returns 0
T4E28 000:487.899 JLINK_CORESIGHT_WriteAPDPReg(AP reg 0x01, 0x80011130)
T4E28 000:488.068 - 0.169ms returns 0
T4E28 000:488.089 JLINK_CORESIGHT_ReadAPDPReg(AP reg 0x03)
T4E28 000:488.426   Value=0x4F0B0081
T4E28 000:488.472 - 0.383ms returns 0
T4E28 000:488.492 JLINK_CORESIGHT_WriteAPDPReg(AP reg 0x00, 0x80000002)
T4E28 000:488.699 - 0.208ms returns 0
T4E28 000:488.729 JLINK_CORESIGHT_WriteAPDPReg(AP reg 0x01, 0x80011140)
T4E28 000:488.916 - 0.187ms returns 0
T4E28 000:488.938 JLINK_CORESIGHT_ReadAPDPReg(AP reg 0x03)
T4E28 000:489.172   Value=0x00000000
T4E28 000:489.200 - 0.262ms returns 0
T4E28 000:489.218 JLINK_CORESIGHT_WriteAPDPReg(AP reg 0x00, 0x80000002)
T4E28 000:489.391 - 0.172ms returns 0
T4E28 000:489.412 JLINK_CORESIGHT_WriteAPDPReg(AP reg 0x01, 0x80011130)
T4E28 000:489.581 - 0.169ms returns 0
T4E28 000:489.602 JLINK_CORESIGHT_ReadAPDPReg(AP reg 0x03)
T4E28 000:489.841   Value=0x20000000
T4E28 000:489.867 - 0.265ms returns 0
T4E28 000:489.885 JLINK_CORESIGHT_WriteAPDPReg(AP reg 0x00, 0x80000002)
T4E28 000:490.066 - 0.180ms returns 0
T4E28 000:490.087 JLINK_CORESIGHT_WriteAPDPReg(AP reg 0x01, 0x80011140)
T4E28 000:490.376 - 0.290ms returns 0
T4E28 000:490.407 JLINK_CORESIGHT_ReadAPDPReg(AP reg 0x03)
T4E28 000:490.694   Value=0x00000000
T4E28 000:490.720 - 0.313ms returns 0
T4E28 000:490.738 JLINK_CORESIGHT_WriteAPDPReg(AP reg 0x00, 0x80000002)
T4E28 000:490.942 - 0.204ms returns 0
T4E28 000:490.965 JLINK_CORESIGHT_WriteAPDPReg(AP reg 0x01, 0x80011130)
T4E28 000:491.145 - 0.180ms returns 0
T4E28 000:491.167 JLINK_CORESIGHT_ReadAPDPReg(AP reg 0x03)
T4E28 000:491.419   Value=0x00000000
T4E28 000:491.446 - 0.278ms returns 0
T4E28 000:491.463 JLINK_CORESIGHT_WriteAPDPReg(AP reg 0x00, 0x80000002)
T4E28 000:491.642 - 0.178ms returns 0
T4E28 000:491.662 JLINK_CORESIGHT_WriteAPDPReg(AP reg 0x01, 0x80011140)
T4E28 000:491.831 - 0.169ms returns 0
T4E28 000:491.853 JLINK_CORESIGHT_ReadAPDPReg(AP reg 0x03)
T4E28 000:492.149   Value=0x00000000
T4E28 000:492.176 - 0.324ms returns 0
T4E28 000:492.195 JLINK_CORESIGHT_WriteAPDPReg(AP reg 0x00, 0x80000002)
T4E28 000:492.365 - 0.170ms returns 0
T4E28 000:492.386 JLINK_CORESIGHT_WriteAPDPReg(AP reg 0x01, 0x80011130)
T4E28 000:492.555 - 0.169ms returns 0
T4E28 000:492.576 JLINK_CORESIGHT_ReadAPDPReg(AP reg 0x03)
T4E28 000:492.798   Value=0x03860000
T4E28 000:492.825 - 0.249ms returns 0
T4E28 000:492.929 JLINK_CORESIGHT_ReadAPDPReg(DP reg 0x01)
T4E28 000:493.223   Value=0xF0000F40
T4E28 000:493.346 - 0.416ms returns 0
T4E28 000:493.407 JLINK_CORESIGHT_WriteAPDPReg(DP reg 0x01, 0xA0000F40)
T4E28 000:493.681 - 0.274ms returns 0
T4E28 000:493.720 JLINK_CORESIGHT_ReadAPDPReg(DP reg 0x01)
T4E28 000:493.941   Value=0x00000F40
T4E28 000:493.975 - 0.255ms returns 0
T4E28 000:493.995 JLINK_ClrRESET()
T4E28 000:496.109 - 2.113ms 
T4E28 000:597.466 JLINK_Close()
T4E28 000:611.944 - 14.477ms
T4E28 000:612.061   
T4E28 000:612.092   Closed
